
T0AFC 000:035 SEGGER J-Link V6.10i Log File (0000ms, 0014ms total)
T0AFC 000:035 DLL Compiled: Oct 25 2016 19:31:51 (0000ms, 0014ms total)
T0AFC 000:035 Logging started @ 2018-01-13 14:22 (0000ms, 0014ms total)
T0AFC 000:035 JLINK_SetWarnOutHandler(...) (0000ms, 0014ms total)
T0AFC 000:035 JLINK_OpenEx(...)
Firmware: J-Link ARM-OB STM32 compiled Aug 22 2012 19:52:04
Hardware: V7.00
S/N: 20090928
Feature(s): RDI,FlashDL,FlashBP,JFlash,GDBFullWEBSRV Webserver running on local port 19080 (0008ms, 0022ms total)
T0AFC 000:035   returns O.K. (0008ms, 0022ms total)
T0AFC 000:043 JLINK_SetErrorOutHandler(...) (0000ms, 0022ms total)
T0AFC 000:043 JLINK_ExecCommand("ProjectFile = "C:\Users\adayimaxiga\Documents\Ð´¸ø³ÂÊ¦ÐÖ2.0\USER\JLinkSettings.ini"", ...).   returns 0x00 (0090ms, 0112ms total)
T0AFC 000:137 JLINK_ExecCommand("Device = STM32F407ZG", ...). Device "STM32F407ZG" selected.  returns 0x00 (0004ms, 0116ms total)
T0AFC 000:141 JLINK_ExecCommand("DisableConnectionTimeout", ...).   returns 0x01 (0000ms, 0116ms total)
T0AFC 000:141 JLINK_GetHardwareVersion()  returns 0x11170 (0000ms, 0116ms total)
T0AFC 000:141 JLINK_GetDLLVersion()  returns 61009 (0000ms, 0116ms total)
T0AFC 000:141 JLINK_GetFirmwareString(...) (0000ms, 0116ms total)
T0AFC 000:147 JLINK_GetDLLVersion()  returns 61009 (0000ms, 0116ms total)
T0AFC 000:147 JLINK_GetCompileDateTime() (0000ms, 0116ms total)
T0AFC 000:149 JLINK_GetFirmwareString(...) (0000ms, 0116ms total)
T0AFC 000:152 JLINK_GetHardwareVersion()  returns 0x11170 (0000ms, 0116ms total)
T0AFC 000:161 JLINK_TIF_Select(JLINKARM_TIF_SWD)  returns 0x00 (0000ms, 0116ms total)
T0AFC 000:161 JLINK_SetSpeed(2000) (0000ms, 0116ms total)
T0AFC 000:161 JLINK_GetId() >0x108 TIF>Found SWD-DP with ID 0x2BA01477 >0x0D TIF> >0x28 TIF> >0x0D TIF> >0x28 TIF> >0x0D TIF> >0x28 TIF> >0x0D TIF> >0x28 TIF> >0x0D TIF> >0x21 TIF> >0x0D TIF> >0x28 TIF> >0x0D TIF> >0x28 TIF> >0x0D TIF> >0x28 TIF> >0x0D TIF> >0x21 TIF> >0x0D TIF> >0x21 TIF> >0x0D TIF> >0x28 TIF> >0x0D TIF> >0x21 TIF> >0x0D TIF> >0x21 TIF> >0x0D TIF> >0x28 TIF> >0x0D TIF> >0x21 TIF> >0x0D TIF> >0x21 TIF> >0x0D TIF> >0x28 TIF> >0x0D TIF> >0x21 TIF> >0x0D TIF> >0x21 TIF> >0x0D TIF>
 >0x28 TIF> >0x0D TIF> >0x21 TIF> >0x0D TIF> >0x21 TIF> >0x0D TIF> >0x28 TIF> >0x0D TIF> >0x21 TIF> >0x0D TIF> >0x21 TIF> >0x108 TIF>Found SWD-DP with ID 0x2BA01477 >0x0D TIF> >0x28 TIF> >0x0D TIF> >0x28 TIF> >0x0D TIF> >0x28 TIF> >0x0D TIF> >0x28 TIF> >0x0D TIF> >0x21 TIF> >0x0D TIF> >0x28 TIF> >0x0D TIF> >0x28 TIF> >0x0D TIF> >0x21 TIF> >0x0D TIF> >0x21 TIF> >0x0D TIF> >0x21 TIF>AP-IDR: 0x24770011, Type: AHB-AP >0x0D TIF> >0x28 TIF> >0x0D TIF> >0x28 TIF> >0x0D TIF> >0x28 TIF> >0x0D TIF> >0x21 TIF>
 >0x0D TIF> >0x21 TIF> >0x0D TIF> >0x28 TIF> >0x0D TIF> >0x21 TIF> >0x0D TIF> >0x21 TIF>Found Cortex-M4 r0p1, Little endian. -- CPU_ReadMem(4 bytes @ 0xE000EDF0) -- CPU_WriteMem(4 bytes @ 0xE000EDF0) -- CPU_ReadMem(4 bytes @ 0xE0002000)FPUnit: 6 code (BP) slots and 2 literal slots -- CPU_ReadMem(4 bytes @ 0xE000EDFC) -- CPU_WriteMem(4 bytes @ 0xE000EDFC) -- CPU_ReadMem(4 bytes @ 0xE0001000) -- CPU_WriteMem(4 bytes @ 0xE0001000) -- CPU_ReadMem(4 bytes @ 0xE000ED88) -- CPU_WriteMem(4 bytes @ 0xE000ED88)
 -- CPU_ReadMem(4 bytes @ 0xE000ED88) -- CPU_WriteMem(4 bytes @ 0xE000ED88)CoreSight components:ROMTbl 0 @ E00FF000 -- CPU_ReadMem(16 bytes @ 0xE00FF000) -- CPU_ReadMem(16 bytes @ 0xE000EFF0) -- CPU_ReadMem(16 bytes @ 0xE000EFE0)ROMTbl 0 [0]: FFF0F000, CID: B105E00D, PID: 000BB00C SCS -- CPU_ReadMem(16 bytes @ 0xE0001FF0) -- CPU_ReadMem(16 bytes @ 0xE0001FE0)ROMTbl 0 [1]: FFF02000, CID: B105E00D, PID: 003BB002 DWT -- CPU_ReadMem(16 bytes @ 0xE0002FF0) -- CPU_ReadMem(16 bytes @ 0xE0002FE0)
ROMTbl 0 [2]: FFF03000, CID: B105E00D, PID: 002BB003 FPB -- CPU_ReadMem(16 bytes @ 0xE0000FF0) -- CPU_ReadMem(16 bytes @ 0xE0000FE0)ROMTbl 0 [3]: FFF01000, CID: B105E00D, PID: 003BB001 ITM -- CPU_ReadMem(16 bytes @ 0xE00FF010) -- CPU_ReadMem(16 bytes @ 0xE0040FF0) -- CPU_ReadMem(16 bytes @ 0xE0040FE0)ROMTbl 0 [4]: FFF41000, CID: B105900D, PID: 000BB9A1 TPIU -- CPU_ReadMem(16 bytes @ 0xE0041FF0) -- CPU_ReadMem(16 bytes @ 0xE0041FE0)ROMTbl 0 [5]: FFF42000, CID: B105900D, PID: 000BB925 ETM >0x0D TIF>
 >0x21 TIF>  returns 0x2BA01477 (0056ms, 0172ms total)
T0AFC 000:217 JLINK_GetDLLVersion()  returns 61009 (0000ms, 0172ms total)
T0AFC 000:217 JLINK_CORE_GetFound()  returns 0xE0000FF (0000ms, 0172ms total)
T0AFC 000:217 JLINK_GetDebugInfo(0x100) -- Value=0xE00FF000  returns 0x00 (0000ms, 0172ms total)
T0AFC 000:220 JLINK_GetDebugInfo(0x100) -- Value=0xE00FF000  returns 0x00 (0000ms, 0172ms total)
T0AFC 000:220 JLINK_GetDebugInfo(0x101) -- Value=0xE0041000  returns 0x00 (0000ms, 0172ms total)
T0AFC 000:220 JLINK_GetDebugInfo(0x102) -- Value=0x00000000  returns 0x00 (0000ms, 0172ms total)
T0AFC 000:220 JLINK_GetDebugInfo(0x103) -- Value=0xE0040000  returns 0x00 (0000ms, 0172ms total)
T0AFC 000:220 JLINK_GetDebugInfo(0x104) -- Value=0xE0000000  returns 0x00 (0000ms, 0172ms total)
T0AFC 000:220 JLINK_GetDebugInfo(0x105) -- Value=0xE0001000  returns 0x00 (0000ms, 0172ms total)
T0AFC 000:220 JLINK_GetDebugInfo(0x106) -- Value=0xE0002000  returns 0x00 (0000ms, 0172ms total)
T0AFC 000:220 JLINK_GetDebugInfo(0x107) -- Value=0xE000E000  returns 0x00 (0000ms, 0172ms total)
T0AFC 000:220 JLINK_GetDebugInfo(0x10C) -- Value=0xE000EDF0  returns 0x00 (0000ms, 0172ms total)
T0AFC 000:220 JLINK_ReadMemU32(0xE000EF40, 0x0001 Items, ...) -- CPU is running -- CPU_ReadMem(4 bytes @ 0xE000EF40) - Data: 21 00 11 10  returns 0x01 (0000ms, 0172ms total)
T0AFC 000:220 JLINK_ReadMemU32(0xE000EF44, 0x0001 Items, ...) -- CPU is running -- CPU_ReadMem(4 bytes @ 0xE000EF44) - Data: 11 00 00 11  returns 0x01 (0001ms, 0173ms total)
T0AFC 000:221 JLINK_ReadMemU32(0xE000ED00, 0x0001 Items, ...) -- CPU is running -- CPU_ReadMem(4 bytes @ 0xE000ED00) - Data: 41 C2 0F 41  returns 0x01 (0000ms, 0173ms total)
T0AFC 000:221 JLINK_SetResetType(JLINKARM_RESET_TYPE_NORMAL)  returns JLINKARM_RESET_TYPE_NORMAL (0000ms, 0173ms total)
T0AFC 000:221 JLINK_Reset() -- CPU is running -- CPU_WriteMem(4 bytes @ 0xE000EDF0) -- CPU is running -- CPU_WriteMem(4 bytes @ 0xE000EDFC) >0x35 TIF> -- CPU is running -- CPU_WriteMem(4 bytes @ 0xE000ED0C) -- CPU is running -- CPU_ReadMem(4 bytes @ 0xE000EDF0) -- CPU is running -- CPU_ReadMem(4 bytes @ 0xE000EDF0) -- CPU is running -- CPU_WriteMem(4 bytes @ 0xE000EDF0) -- CPU is running -- CPU_WriteMem(4 bytes @ 0xE000EDFC) -- CPU is running -- CPU_ReadMem(4 bytes @ 0xE000EDF0)
 -- CPU_WriteMem(4 bytes @ 0xE0002000) -- CPU_ReadMem(4 bytes @ 0xE000EDFC) -- CPU_ReadMem(4 bytes @ 0xE0001000) (0018ms, 0191ms total)
T0AFC 000:239 JLINK_Halt()  returns 0x00 (0000ms, 0191ms total)
T0AFC 000:239 JLINK_IsHalted()  returns TRUE (0000ms, 0191ms total)
T0AFC 000:239 JLINK_ReadMemU32(0xE000EDF0, 0x0001 Items, ...) -- CPU_ReadMem(4 bytes @ 0xE000EDF0) - Data: 03 00 03 00  returns 0x01 (0001ms, 0192ms total)
T0AFC 000:240 JLINK_WriteU32(0xE000EDF0, 0xA05F0003) -- CPU_WriteMem(4 bytes @ 0xE000EDF0)  returns 0x00 (0000ms, 0192ms total)
T0AFC 000:240 JLINK_WriteU32(0xE000EDFC, 0x01000000) -- CPU_WriteMem(4 bytes @ 0xE000EDFC)  returns 0x00 (0001ms, 0193ms total)
T0AFC 000:247 JLINK_GetHWStatus(...)  returns 0x00 (0000ms, 0193ms total)
T0AFC 000:251 JLINK_GetNumBPUnits(Type = 0xFFFFFF00)  returns 0x06 (0000ms, 0193ms total)
T0AFC 000:251 JLINK_GetNumBPUnits(Type = 0xF0)  returns 0x2000 (0000ms, 0193ms total)
T0AFC 000:251 JLINK_GetNumWPUnits()  returns 0x04 (0000ms, 0193ms total)
T0AFC 000:257 JLINK_GetSpeed()  returns 0x7D0 (0000ms, 0193ms total)
T0AFC 000:260 JLINK_ReadMemU32(0xE000E004, 0x0001 Items, ...) -- CPU_ReadMem(4 bytes @ 0xE000E004) - Data: 02 00 00 00  returns 0x01 (0002ms, 0195ms total)
T0AFC 000:262 JLINK_ReadMemU32(0xE000E004, 0x0001 Items, ...) -- CPU_ReadMem(4 bytes @ 0xE000E004) - Data: 02 00 00 00  returns 0x01 (0001ms, 0196ms total)
T0AFC 000:263 JLINK_WriteMem(0xE0001000, 0x001C Bytes, ...) - Data: 01 00 00 00 00 00 00 00 00 00 00 00 00 00 00 00 ... -- CPU_WriteMem(28 bytes @ 0xE0001000)  returns 0x1C (0001ms, 0197ms total)
T0AFC 000:264 JLINK_ReadMem (0xE0001000, 0x001C Bytes, ...) -- CPU_ReadMem(28 bytes @ 0xE0001000) - Data: 01 00 00 40 00 00 00 00 00 00 00 00 00 00 00 00 ...  returns 0x00 (0001ms, 0198ms total)
T0AFC 000:265 JLINK_Halt()  returns 0x00 (0000ms, 0198ms total)
T0AFC 000:265 JLINK_IsHalted()  returns TRUE (0000ms, 0198ms total)
T0AFC 000:267 JLINK_WriteMem(0x20000000, 0x0180 Bytes, ...) - Data: 00 BE 0A E0 0D 78 2D 06 68 40 08 24 40 00 00 D3 ... -- CPU_WriteMem(384 bytes @ 0x20000000)  returns 0x180 (0005ms, 0203ms total)
T0AFC 000:272 JLINK_WriteReg(R0, 0x08000000)  returns 0x00 (0000ms, 0203ms total)
T0AFC 000:273 JLINK_WriteReg(R1, 0x0A037A00)  returns 0x00 (0000ms, 0204ms total)
T0AFC 000:273 JLINK_WriteReg(R2, 0x00000001)  returns 0x00 (0000ms, 0204ms total)
T0AFC 000:273 JLINK_WriteReg(R3, 0x00000000)  returns 0x00 (0000ms, 0204ms total)
T0AFC 000:273 JLINK_WriteReg(R4, 0x00000000)  returns 0x00 (0000ms, 0204ms total)
T0AFC 000:273 JLINK_WriteReg(R5, 0x00000000)  returns 0x00 (0000ms, 0204ms total)
T0AFC 000:273 JLINK_WriteReg(R6, 0x00000000)  returns 0x00 (0000ms, 0204ms total)
T0AFC 000:273 JLINK_WriteReg(R7, 0x00000000)  returns 0x00 (0000ms, 0204ms total)
T0AFC 000:273 JLINK_WriteReg(R8, 0x00000000)  returns 0x00 (0000ms, 0204ms total)
T0AFC 000:273 JLINK_WriteReg(R9, 0x2000017C)  returns 0x00 (0000ms, 0204ms total)
T0AFC 000:273 JLINK_WriteReg(R10, 0x00000000)  returns 0x00 (0000ms, 0204ms total)
T0AFC 000:273 JLINK_WriteReg(R11, 0x00000000)  returns 0x00 (0000ms, 0204ms total)
T0AFC 000:273 JLINK_WriteReg(R12, 0x00000000)  returns 0x00 (0000ms, 0204ms total)
T0AFC 000:273 JLINK_WriteReg(R13 (SP), 0x20001000)  returns 0x00 (0000ms, 0204ms total)
T0AFC 000:273 JLINK_WriteReg(R14, 0x20000001)  returns 0x00 (0000ms, 0204ms total)
T0AFC 000:273 JLINK_WriteReg(R15 (PC), 0x20000054)  returns 0x00 (0000ms, 0204ms total)
T0AFC 000:273 JLINK_WriteReg(XPSR, 0x01000000)  returns 0x00 (0000ms, 0204ms total)
T0AFC 000:273 JLINK_WriteReg(MSP, 0x20001000)  returns 0x00 (0000ms, 0204ms total)
T0AFC 000:273 JLINK_WriteReg(PSP, 0x20001000)  returns 0x00 (0000ms, 0204ms total)
T0AFC 000:273 JLINK_WriteReg(CFBP, 0x00000000)  returns 0x00 (0000ms, 0204ms total)
T0AFC 000:273 JLINK_SetBPEx(Addr = 0x20000000, Type = 0xFFFFFFF2) -- CPU_ReadMem(2 bytes @ 0x20000000)  returns 0x00000001 (0000ms, 0204ms total)
T0AFC 000:273 JLINK_Go() -- CPU_WriteMem(2 bytes @ 0x20000000) -- CPU_ReadMem(4 bytes @ 0xE0001000) -- CPU_WriteMem(4 bytes @ 0xE0002008) -- CPU_WriteMem(4 bytes @ 0xE000200C) -- CPU_WriteMem(4 bytes @ 0xE0002010) -- CPU_WriteMem(4 bytes @ 0xE0002014) -- CPU_WriteMem(4 bytes @ 0xE0002018) -- CPU_WriteMem(4 bytes @ 0xE000201C) -- CPU_WriteMem(4 bytes @ 0xE0001004) (0007ms, 0211ms total)
T0AFC 000:280 JLINK_IsHalted() -- CPU_ReadMem(2 bytes @ 0x20000000)  returns TRUE (0005ms, 0216ms total)
T0AFC 000:285 JLINK_ReadReg(R15 (PC))  returns 0x20000000 (0000ms, 0211ms total)
T0AFC 000:285 JLINK_ClrBPEx(BPHandle = 0x00000001)  returns 0x00 (0000ms, 0211ms total)
T0AFC 000:285 JLINK_ReadReg(R0)  returns 0x00000000 (0000ms, 0211ms total)
T0AFC 000:286 JLINK_WriteReg(R0, 0x08000000)  returns 0x00 (0000ms, 0211ms total)
T0AFC 000:286 JLINK_WriteReg(R1, 0x00004000)  returns 0x00 (0000ms, 0211ms total)
T0AFC 000:286 JLINK_WriteReg(R2, 0x000000FF)  returns 0x00 (0000ms, 0211ms total)
T0AFC 000:286 JLINK_WriteReg(R3, 0x00000000)  returns 0x00 (0000ms, 0211ms total)
T0AFC 000:286 JLINK_WriteReg(R4, 0x00000000)  returns 0x00 (0000ms, 0211ms total)
T0AFC 000:286 JLINK_WriteReg(R5, 0x00000000)  returns 0x00 (0000ms, 0211ms total)
T0AFC 000:286 JLINK_WriteReg(R6, 0x00000000)  returns 0x00 (0000ms, 0211ms total)
T0AFC 000:286 JLINK_WriteReg(R7, 0x00000000)  returns 0x00 (0000ms, 0211ms total)
T0AFC 000:286 JLINK_WriteReg(R8, 0x00000000)  returns 0x00 (0000ms, 0211ms total)
T0AFC 000:286 JLINK_WriteReg(R9, 0x2000017C)  returns 0x00 (0000ms, 0211ms total)
T0AFC 000:286 JLINK_WriteReg(R10, 0x00000000)  returns 0x00 (0000ms, 0211ms total)
T0AFC 000:286 JLINK_WriteReg(R11, 0x00000000)  returns 0x00 (0000ms, 0211ms total)
T0AFC 000:286 JLINK_WriteReg(R12, 0x00000000)  returns 0x00 (0000ms, 0211ms total)
T0AFC 000:286 JLINK_WriteReg(R13 (SP), 0x20001000)  returns 0x00 (0000ms, 0211ms total)
T0AFC 000:286 JLINK_WriteReg(R14, 0x20000001)  returns 0x00 (0000ms, 0211ms total)
T0AFC 000:286 JLINK_WriteReg(R15 (PC), 0x20000020)  returns 0x00 (0000ms, 0211ms total)
T0AFC 000:286 JLINK_WriteReg(XPSR, 0x01000000)  returns 0x00 (0000ms, 0211ms total)
T0AFC 000:286 JLINK_WriteReg(MSP, 0x20001000)  returns 0x00 (0000ms, 0211ms total)
T0AFC 000:286 JLINK_WriteReg(PSP, 0x20001000)  returns 0x00 (0000ms, 0211ms total)
T0AFC 000:286 JLINK_WriteReg(CFBP, 0x00000000)  returns 0x00 (0000ms, 0211ms total)
T0AFC 000:286 JLINK_SetBPEx(Addr = 0x20000000, Type = 0xFFFFFFF2)  returns 0x00000002 (0000ms, 0211ms total)
T0AFC 000:286 JLINK_Go() -- CPU_ReadMem(4 bytes @ 0xE0001000) (0003ms, 0214ms total)
T0AFC 000:289 JLINK_IsHalted() -- CPU_ReadMem(2 bytes @ 0x20000000)  returns TRUE (0005ms, 0219ms total)
T0AFC 000:294 JLINK_ReadReg(R15 (PC))  returns 0x20000000 (0000ms, 0214ms total)
T0AFC 000:294 JLINK_ClrBPEx(BPHandle = 0x00000002)  returns 0x00 (0000ms, 0214ms total)
T0AFC 000:294 JLINK_ReadReg(R0)  returns 0x00000001 (0000ms, 0214ms total)
T0AFC 000:294 JLINK_WriteReg(R0, 0x08000000)  returns 0x00 (0000ms, 0214ms total)
T0AFC 000:294 JLINK_WriteReg(R1, 0x00004000)  returns 0x00 (0000ms, 0214ms total)
T0AFC 000:294 JLINK_WriteReg(R2, 0x000000FF)  returns 0x00 (0000ms, 0214ms total)
T0AFC 000:294 JLINK_WriteReg(R3, 0x00000000)  returns 0x00 (0000ms, 0214ms total)
T0AFC 000:294 JLINK_WriteReg(R4, 0x00000000)  returns 0x00 (0000ms, 0214ms total)
T0AFC 000:294 JLINK_WriteReg(R5, 0x00000000)  returns 0x00 (0000ms, 0214ms total)
T0AFC 000:294 JLINK_WriteReg(R6, 0x00000000)  returns 0x00 (0000ms, 0214ms total)
T0AFC 000:294 JLINK_WriteReg(R7, 0x00000000)  returns 0x00 (0000ms, 0214ms total)
T0AFC 000:294 JLINK_WriteReg(R8, 0x00000000)  returns 0x00 (0000ms, 0214ms total)
T0AFC 000:294 JLINK_WriteReg(R9, 0x2000017C)  returns 0x00 (0000ms, 0214ms total)
T0AFC 000:294 JLINK_WriteReg(R10, 0x00000000)  returns 0x00 (0000ms, 0214ms total)
T0AFC 000:294 JLINK_WriteReg(R11, 0x00000000)  returns 0x00 (0000ms, 0214ms total)
T0AFC 000:294 JLINK_WriteReg(R12, 0x00000000)  returns 0x00 (0000ms, 0214ms total)
T0AFC 000:294 JLINK_WriteReg(R13 (SP), 0x20001000)  returns 0x00 (0000ms, 0214ms total)
T0AFC 000:294 JLINK_WriteReg(R14, 0x20000001)  returns 0x00 (0000ms, 0214ms total)
T0AFC 000:294 JLINK_WriteReg(R15 (PC), 0x200000BC)  returns 0x00 (0000ms, 0214ms total)
T0AFC 000:294 JLINK_WriteReg(XPSR, 0x01000000)  returns 0x00 (0000ms, 0214ms total)
T0AFC 000:294 JLINK_WriteReg(MSP, 0x20001000)  returns 0x00 (0000ms, 0214ms total)
T0AFC 000:294 JLINK_WriteReg(PSP, 0x20001000)  returns 0x00 (0000ms, 0214ms total)
T0AFC 000:294 JLINK_WriteReg(CFBP, 0x00000000)  returns 0x00 (0000ms, 0214ms total)
T0AFC 000:294 JLINK_SetBPEx(Addr = 0x20000000, Type = 0xFFFFFFF2)  returns 0x00000003 (0000ms, 0214ms total)
T0AFC 000:294 JLINK_Go() -- CPU_ReadMem(4 bytes @ 0xE0001000) (0003ms, 0217ms total)
T0AFC 000:297 JLINK_IsHalted()  returns FALSE (0001ms, 0218ms total)
T0AFC 000:337 JLINK_IsHalted()  returns FALSE (0001ms, 0218ms total)
T0AFC 000:340 JLINK_IsHalted()  returns FALSE (0000ms, 0217ms total)
T0AFC 000:344 JLINK_IsHalted()  returns FALSE (0001ms, 0218ms total)
T0AFC 000:346 JLINK_IsHalted()  returns FALSE (0001ms, 0218ms total)
T0AFC 000:349 JLINK_IsHalted()  returns FALSE (0001ms, 0218ms total)
T0AFC 000:351 JLINK_IsHalted()  returns FALSE (0001ms, 0218ms total)
T0AFC 000:354 JLINK_IsHalted()  returns FALSE (0000ms, 0217ms total)
T0AFC 000:357 JLINK_IsHalted()  returns FALSE (0000ms, 0217ms total)
T0AFC 000:362 JLINK_IsHalted()  returns FALSE (0000ms, 0217ms total)
T0AFC 000:364 JLINK_IsHalted()  returns FALSE (0000ms, 0217ms total)
T0AFC 000:368 JLINK_IsHalted()  returns FALSE (0001ms, 0218ms total)
T0AFC 000:370 JLINK_IsHalted()  returns FALSE (0001ms, 0218ms total)
T0AFC 000:376 JLINK_IsHalted()  returns FALSE (0001ms, 0218ms total)
T0AFC 000:380 JLINK_IsHalted()  returns FALSE (0001ms, 0218ms total)
T0AFC 000:383 JLINK_IsHalted()  returns FALSE (0001ms, 0218ms total)
T0AFC 000:385 JLINK_IsHalted()  returns FALSE (0001ms, 0218ms total)
T0AFC 000:390 JLINK_IsHalted()  returns FALSE (0000ms, 0217ms total)
T0AFC 000:392 JLINK_IsHalted()  returns FALSE (0001ms, 0218ms total)
T0AFC 000:396 JLINK_IsHalted()  returns FALSE (0000ms, 0217ms total)
T0AFC 000:398 JLINK_IsHalted()  returns FALSE (0001ms, 0218ms total)
T0AFC 000:400 JLINK_IsHalted()  returns FALSE (0001ms, 0218ms total)
T0AFC 000:412 JLINK_IsHalted()  returns FALSE (0001ms, 0218ms total)
T0AFC 000:415 JLINK_IsHalted()  returns FALSE (0000ms, 0217ms total)
T0AFC 000:420 JLINK_IsHalted()  returns FALSE (0000ms, 0217ms total)
T0AFC 000:422 JLINK_IsHalted()  returns FALSE (0001ms, 0218ms total)
T0AFC 000:427 JLINK_IsHalted()  returns FALSE (0000ms, 0217ms total)
T0AFC 000:429 JLINK_IsHalted()  returns FALSE (0000ms, 0217ms total)
T0AFC 000:431 JLINK_IsHalted()  returns FALSE (0001ms, 0218ms total)
T0AFC 000:437 JLINK_IsHalted()  returns FALSE (0000ms, 0217ms total)
T0AFC 000:444 JLINK_IsHalted()  returns FALSE (0001ms, 0218ms total)
T0AFC 000:449 JLINK_IsHalted()  returns FALSE (0000ms, 0217ms total)
T0AFC 000:451 JLINK_IsHalted()  returns FALSE (0001ms, 0218ms total)
T0AFC 000:453 JLINK_IsHalted()  returns FALSE (0001ms, 0218ms total)
T0AFC 000:459 JLINK_IsHalted()  returns FALSE (0000ms, 0217ms total)
T0AFC 000:461 JLINK_IsHalted()  returns FALSE (0000ms, 0217ms total)
T0AFC 000:465 JLINK_IsHalted()  returns FALSE (0001ms, 0218ms total)
T0AFC 000:468 JLINK_IsHalted()  returns FALSE (0001ms, 0218ms total)
T0AFC 000:472 JLINK_IsHalted()  returns FALSE (0001ms, 0218ms total)
T0AFC 000:475 JLINK_IsHalted()  returns FALSE (0000ms, 0217ms total)
T0AFC 000:479 JLINK_IsHalted()  returns FALSE (0001ms, 0218ms total)
T0AFC 000:481 JLINK_IsHalted()  returns FALSE (0000ms, 0217ms total)
T0AFC 000:483 JLINK_IsHalted()  returns FALSE (0000ms, 0217ms total)
T0AFC 000:487 JLINK_IsHalted()  returns FALSE (0001ms, 0218ms total)
T0AFC 000:489 JLINK_IsHalted()  returns FALSE (0001ms, 0218ms total)
T0AFC 000:494 JLINK_IsHalted()  returns FALSE (0001ms, 0218ms total)
T0AFC 000:496 JLINK_IsHalted()  returns FALSE (0000ms, 0217ms total)
T0AFC 000:498 JLINK_IsHalted()  returns FALSE (0000ms, 0217ms total)
T0AFC 000:503 JLINK_IsHalted()  returns FALSE (0001ms, 0218ms total)
T0AFC 000:505 JLINK_IsHalted()  returns FALSE (0001ms, 0218ms total)
T0AFC 000:510 JLINK_IsHalted()  returns FALSE (0001ms, 0218ms total)
T0AFC 000:512 JLINK_IsHalted()  returns FALSE (0001ms, 0218ms total)
T0AFC 000:519 JLINK_IsHalted()  returns FALSE (0001ms, 0218ms total)
T0AFC 000:523 JLINK_IsHalted()  returns FALSE (0001ms, 0218ms total)
T0AFC 000:526 JLINK_IsHalted()  returns FALSE (0000ms, 0217ms total)
T0AFC 000:528 JLINK_IsHalted()  returns FALSE (0000ms, 0217ms total)
T0AFC 000:533 JLINK_IsHalted()  returns FALSE (0001ms, 0218ms total)
T0AFC 000:535 JLINK_IsHalted()  returns FALSE (0001ms, 0218ms total)
T0AFC 000:541 JLINK_IsHalted()  returns FALSE (0000ms, 0217ms total)
T0AFC 000:543 JLINK_IsHalted()  returns FALSE (0000ms, 0217ms total)
T0AFC 000:548 JLINK_IsHalted()  returns FALSE (0000ms, 0217ms total)
T0AFC 000:550 JLINK_IsHalted()  returns FALSE (0000ms, 0217ms total)
T0AFC 000:555 JLINK_IsHalted()  returns FALSE (0000ms, 0217ms total)
T0AFC 000:557 JLINK_IsHalted()  returns FALSE (0000ms, 0217ms total)
T0AFC 000:561 JLINK_IsHalted()  returns FALSE (0001ms, 0218ms total)
T0AFC 000:563 JLINK_IsHalted()  returns FALSE (0000ms, 0217ms total)
T0AFC 000:565 JLINK_IsHalted()  returns FALSE (0000ms, 0217ms total)
T0AFC 000:570 JLINK_IsHalted()  returns FALSE (0000ms, 0217ms total)
T0AFC 000:572 JLINK_IsHalted()  returns FALSE (0001ms, 0218ms total)
T0AFC 000:577 JLINK_IsHalted()  returns FALSE (0000ms, 0217ms total)
T0AFC 000:579 JLINK_IsHalted()  returns FALSE (0000ms, 0217ms total)
T0AFC 000:583 JLINK_IsHalted()  returns FALSE (0001ms, 0218ms total)
T0AFC 000:586 JLINK_IsHalted()  returns FALSE (0000ms, 0217ms total)
T0AFC 000:588 JLINK_IsHalted()  returns FALSE (0000ms, 0217ms total)
T0AFC 000:592 JLINK_IsHalted()  returns FALSE (0001ms, 0218ms total)
T0AFC 000:595 JLINK_IsHalted()  returns FALSE (0000ms, 0217ms total)
T0AFC 000:599 JLINK_IsHalted()  returns FALSE (0001ms, 0218ms total)
T0AFC 000:602 JLINK_IsHalted()  returns FALSE (0000ms, 0217ms total)
T0AFC 000:606 JLINK_IsHalted()  returns FALSE (0001ms, 0218ms total)
T0AFC 000:608 JLINK_IsHalted()  returns FALSE (0001ms, 0218ms total)
T0AFC 000:610 JLINK_IsHalted()  returns FALSE (0001ms, 0218ms total)
T0AFC 000:615 JLINK_IsHalted()  returns FALSE (0000ms, 0217ms total)
T0AFC 000:617 JLINK_IsHalted()  returns FALSE (0000ms, 0217ms total)
T0AFC 000:621 JLINK_IsHalted()  returns FALSE (0001ms, 0218ms total)
T0AFC 000:623 JLINK_IsHalted()  returns FALSE (0001ms, 0218ms total)
T0AFC 000:625 JLINK_IsHalted()  returns FALSE (0001ms, 0218ms total)
T0AFC 000:632 JLINK_IsHalted()  returns FALSE (0001ms, 0218ms total)
T0AFC 000:637 JLINK_IsHalted()  returns FALSE (0001ms, 0218ms total)
T0AFC 000:640 JLINK_IsHalted()  returns FALSE (0000ms, 0217ms total)
T0AFC 000:642 JLINK_IsHalted()  returns FALSE (0001ms, 0218ms total)
T0AFC 000:644 JLINK_IsHalted()  returns FALSE (0001ms, 0218ms total)
T0AFC 000:646 JLINK_IsHalted()  returns FALSE (0001ms, 0218ms total)
T0AFC 000:648 JLINK_IsHalted()  returns FALSE (0001ms, 0218ms total)
T0AFC 000:650 JLINK_IsHalted()  returns FALSE (0000ms, 0217ms total)
T0AFC 000:652 JLINK_IsHalted() -- CPU_ReadMem(2 bytes @ 0x20000000)  returns TRUE (0005ms, 0222ms total)
T0AFC 000:657 JLINK_ReadReg(R15 (PC))  returns 0x20000000 (0000ms, 0217ms total)
T0AFC 000:657 JLINK_ClrBPEx(BPHandle = 0x00000003)  returns 0x00 (0000ms, 0217ms total)
T0AFC 000:657 JLINK_ReadReg(R0)  returns 0x00000000 (0000ms, 0217ms total)
T0AFC 000:658 JLINK_WriteReg(R0, 0x00000001)  returns 0x00 (0000ms, 0217ms total)
T0AFC 000:658 JLINK_WriteReg(R1, 0x00004000)  returns 0x00 (0000ms, 0217ms total)
T0AFC 000:658 JLINK_WriteReg(R2, 0x000000FF)  returns 0x00 (0000ms, 0217ms total)
T0AFC 000:658 JLINK_WriteReg(R3, 0x00000000)  returns 0x00 (0000ms, 0217ms total)
T0AFC 000:658 JLINK_WriteReg(R4, 0x00000000)  returns 0x00 (0000ms, 0217ms total)
T0AFC 000:658 JLINK_WriteReg(R5, 0x00000000)  returns 0x00 (0000ms, 0217ms total)
T0AFC 000:658 JLINK_WriteReg(R6, 0x00000000)  returns 0x00 (0000ms, 0217ms total)
T0AFC 000:658 JLINK_WriteReg(R7, 0x00000000)  returns 0x00 (0000ms, 0217ms total)
T0AFC 000:658 JLINK_WriteReg(R8, 0x00000000)  returns 0x00 (0000ms, 0217ms total)
T0AFC 000:658 JLINK_WriteReg(R9, 0x2000017C)  returns 0x00 (0000ms, 0217ms total)
T0AFC 000:658 JLINK_WriteReg(R10, 0x00000000)  returns 0x00 (0000ms, 0217ms total)
T0AFC 000:658 JLINK_WriteReg(R11, 0x00000000)  returns 0x00 (0000ms, 0217ms total)
T0AFC 000:658 JLINK_WriteReg(R12, 0x00000000)  returns 0x00 (0000ms, 0217ms total)
T0AFC 000:658 JLINK_WriteReg(R13 (SP), 0x20001000)  returns 0x00 (0000ms, 0217ms total)
T0AFC 000:658 JLINK_WriteReg(R14, 0x20000001)  returns 0x00 (0000ms, 0217ms total)
T0AFC 000:658 JLINK_WriteReg(R15 (PC), 0x20000082)  returns 0x00 (0000ms, 0217ms total)
T0AFC 000:658 JLINK_WriteReg(XPSR, 0x01000000)  returns 0x00 (0000ms, 0217ms total)
T0AFC 000:658 JLINK_WriteReg(MSP, 0x20001000)  returns 0x00 (0000ms, 0217ms total)
T0AFC 000:658 JLINK_WriteReg(PSP, 0x20001000)  returns 0x00 (0000ms, 0217ms total)
T0AFC 000:658 JLINK_WriteReg(CFBP, 0x00000000)  returns 0x00 (0000ms, 0217ms total)
T0AFC 000:658 JLINK_SetBPEx(Addr = 0x20000000, Type = 0xFFFFFFF2)  returns 0x00000004 (0000ms, 0217ms total)
T0AFC 000:658 JLINK_Go() -- CPU_ReadMem(4 bytes @ 0xE0001000) (0003ms, 0220ms total)
T0AFC 000:661 JLINK_IsHalted() -- CPU_ReadMem(2 bytes @ 0x20000000)  returns TRUE (0004ms, 0224ms total)
T0AFC 000:665 JLINK_ReadReg(R15 (PC))  returns 0x20000000 (0000ms, 0220ms total)
T0AFC 000:665 JLINK_ClrBPEx(BPHandle = 0x00000004)  returns 0x00 (0000ms, 0220ms total)
T0AFC 000:665 JLINK_ReadReg(R0)  returns 0x00000000 (0000ms, 0220ms total)
T0AFC 000:735 JLINK_WriteMem(0x20000000, 0x0180 Bytes, ...) - Data: 00 BE 0A E0 0D 78 2D 06 68 40 08 24 40 00 00 D3 ... -- CPU_WriteMem(384 bytes @ 0x20000000)  returns 0x180 (0006ms, 0226ms total)
T0AFC 000:741 JLINK_WriteReg(R0, 0x08000000)  returns 0x00 (0000ms, 0226ms total)
T0AFC 000:741 JLINK_WriteReg(R1, 0x0A037A00)  returns 0x00 (0000ms, 0226ms total)
T0AFC 000:741 JLINK_WriteReg(R2, 0x00000002)  returns 0x00 (0000ms, 0226ms total)
T0AFC 000:741 JLINK_WriteReg(R3, 0x00000000)  returns 0x00 (0000ms, 0226ms total)
T0AFC 000:741 JLINK_WriteReg(R4, 0x00000000)  returns 0x00 (0000ms, 0226ms total)
T0AFC 000:741 JLINK_WriteReg(R5, 0x00000000)  returns 0x00 (0000ms, 0226ms total)
T0AFC 000:741 JLINK_WriteReg(R6, 0x00000000)  returns 0x00 (0000ms, 0226ms total)
T0AFC 000:741 JLINK_WriteReg(R7, 0x00000000)  returns 0x00 (0000ms, 0226ms total)
T0AFC 000:741 JLINK_WriteReg(R8, 0x00000000)  returns 0x00 (0000ms, 0226ms total)
T0AFC 000:741 JLINK_WriteReg(R9, 0x2000017C)  returns 0x00 (0001ms, 0227ms total)
T0AFC 000:742 JLINK_WriteReg(R10, 0x00000000)  returns 0x00 (0000ms, 0227ms total)
T0AFC 000:742 JLINK_WriteReg(R11, 0x00000000)  returns 0x00 (0000ms, 0227ms total)
T0AFC 000:742 JLINK_WriteReg(R12, 0x00000000)  returns 0x00 (0000ms, 0227ms total)
T0AFC 000:742 JLINK_WriteReg(R13 (SP), 0x20001000)  returns 0x00 (0000ms, 0227ms total)
T0AFC 000:742 JLINK_WriteReg(R14, 0x20000001)  returns 0x00 (0000ms, 0227ms total)
T0AFC 000:742 JLINK_WriteReg(R15 (PC), 0x20000054)  returns 0x00 (0000ms, 0227ms total)
T0AFC 000:742 JLINK_WriteReg(XPSR, 0x01000000)  returns 0x00 (0000ms, 0227ms total)
T0AFC 000:742 JLINK_WriteReg(MSP, 0x20001000)  returns 0x00 (0000ms, 0227ms total)
T0AFC 000:742 JLINK_WriteReg(PSP, 0x20001000)  returns 0x00 (0000ms, 0227ms total)
T0AFC 000:742 JLINK_WriteReg(CFBP, 0x00000000)  returns 0x00 (0000ms, 0227ms total)
T0AFC 000:742 JLINK_SetBPEx(Addr = 0x20000000, Type = 0xFFFFFFF2) -- CPU_ReadMem(2 bytes @ 0x20000000)  returns 0x00000005 (0001ms, 0228ms total)
T0AFC 000:743 JLINK_Go() -- CPU_WriteMem(2 bytes @ 0x20000000) -- CPU_ReadMem(4 bytes @ 0xE0001000) (0003ms, 0231ms total)
T0AFC 000:746 JLINK_IsHalted() -- CPU_ReadMem(2 bytes @ 0x20000000)  returns TRUE (0005ms, 0236ms total)
T0AFC 000:751 JLINK_ReadReg(R15 (PC))  returns 0x20000000 (0000ms, 0231ms total)
T0AFC 000:751 JLINK_ClrBPEx(BPHandle = 0x00000005)  returns 0x00 (0000ms, 0231ms total)
T0AFC 000:751 JLINK_ReadReg(R0)  returns 0x00000000 (0000ms, 0231ms total)
T0AFC 000:753 JLINK_WriteMem(0x20000180, 0x0400 Bytes, ...) - Data: D0 09 00 20 29 02 00 08 01 0F 00 08 05 0B 00 08 ... -- CPU_WriteMem(1024 bytes @ 0x20000180)  returns 0x400 (0012ms, 0243ms total)
T0AFC 000:766 JLINK_WriteReg(R0, 0x08000000)  returns 0x00 (0000ms, 0243ms total)
T0AFC 000:766 JLINK_WriteReg(R1, 0x00000400)  returns 0x00 (0000ms, 0243ms total)
T0AFC 000:766 JLINK_WriteReg(R2, 0x20000180)  returns 0x00 (0000ms, 0243ms total)
T0AFC 000:766 JLINK_WriteReg(R3, 0x00000000)  returns 0x00 (0000ms, 0243ms total)
T0AFC 000:766 JLINK_WriteReg(R4, 0x00000000)  returns 0x00 (0000ms, 0243ms total)
T0AFC 000:766 JLINK_WriteReg(R5, 0x00000000)  returns 0x00 (0000ms, 0243ms total)
T0AFC 000:766 JLINK_WriteReg(R6, 0x00000000)  returns 0x00 (0000ms, 0243ms total)
T0AFC 000:766 JLINK_WriteReg(R7, 0x00000000)  returns 0x00 (0000ms, 0243ms total)
T0AFC 000:766 JLINK_WriteReg(R8, 0x00000000)  returns 0x00 (0000ms, 0243ms total)
T0AFC 000:766 JLINK_WriteReg(R9, 0x2000017C)  returns 0x00 (0000ms, 0243ms total)
T0AFC 000:766 JLINK_WriteReg(R10, 0x00000000)  returns 0x00 (0000ms, 0243ms total)
T0AFC 000:766 JLINK_WriteReg(R11, 0x00000000)  returns 0x00 (0000ms, 0243ms total)
T0AFC 000:766 JLINK_WriteReg(R12, 0x00000000)  returns 0x00 (0000ms, 0243ms total)
T0AFC 000:766 JLINK_WriteReg(R13 (SP), 0x20001000)  returns 0x00 (0000ms, 0243ms total)
T0AFC 000:767 JLINK_WriteReg(R14, 0x20000001)  returns 0x00 (0000ms, 0244ms total)
T0AFC 000:767 JLINK_WriteReg(R15 (PC), 0x20000108)  returns 0x00 (0000ms, 0244ms total)
T0AFC 000:767 JLINK_WriteReg(XPSR, 0x01000000)  returns 0x00 (0000ms, 0244ms total)
T0AFC 000:767 JLINK_WriteReg(MSP, 0x20001000)  returns 0x00 (0000ms, 0244ms total)
T0AFC 000:767 JLINK_WriteReg(PSP, 0x20001000)  returns 0x00 (0000ms, 0244ms total)
T0AFC 000:767 JLINK_WriteReg(CFBP, 0x00000000)  returns 0x00 (0000ms, 0244ms total)
T0AFC 000:767 JLINK_SetBPEx(Addr = 0x20000000, Type = 0xFFFFFFF2)  returns 0x00000006 (0000ms, 0244ms total)
T0AFC 000:767 JLINK_Go() -- CPU_ReadMem(4 bytes @ 0xE0001000) (0003ms, 0247ms total)
T0AFC 000:770 JLINK_IsHalted()  returns FALSE (0001ms, 0248ms total)
T0AFC 000:791 JLINK_IsHalted() -- CPU_ReadMem(2 bytes @ 0x20000000)  returns TRUE (0004ms, 0251ms total)
T0AFC 000:795 JLINK_ReadReg(R15 (PC))  returns 0x20000000 (0000ms, 0251ms total)
T0AFC 000:795 JLINK_ClrBPEx(BPHandle = 0x00000006)  returns 0x00 (0000ms, 0251ms total)
T0AFC 000:795 JLINK_ReadReg(R0)  returns 0x00000000 (0000ms, 0251ms total)
T0AFC 000:797 JLINK_WriteMem(0x20000180, 0x0400 Bytes, ...) - Data: DA DB 01 20 11 49 81 F8 30 00 00 E0 00 BF 00 BF ... -- CPU_WriteMem(1024 bytes @ 0x20000180)  returns 0x400 (0013ms, 0264ms total)
T0AFC 000:810 JLINK_WriteReg(R0, 0x08000400)  returns 0x00 (0000ms, 0264ms total)
T0AFC 000:810 JLINK_WriteReg(R1, 0x00000400)  returns 0x00 (0000ms, 0264ms total)
T0AFC 000:810 JLINK_WriteReg(R2, 0x20000180)  returns 0x00 (0000ms, 0264ms total)
T0AFC 000:810 JLINK_WriteReg(R3, 0x00000000)  returns 0x00 (0000ms, 0264ms total)
T0AFC 000:810 JLINK_WriteReg(R4, 0x00000000)  returns 0x00 (0000ms, 0264ms total)
T0AFC 000:810 JLINK_WriteReg(R5, 0x00000000)  returns 0x00 (0000ms, 0264ms total)
T0AFC 000:810 JLINK_WriteReg(R6, 0x00000000)  returns 0x00 (0000ms, 0264ms total)
T0AFC 000:810 JLINK_WriteReg(R7, 0x00000000)  returns 0x00 (0000ms, 0264ms total)
T0AFC 000:810 JLINK_WriteReg(R8, 0x00000000)  returns 0x00 (0001ms, 0265ms total)
T0AFC 000:811 JLINK_WriteReg(R9, 0x2000017C)  returns 0x00 (0000ms, 0265ms total)
T0AFC 000:811 JLINK_WriteReg(R10, 0x00000000)  returns 0x00 (0000ms, 0265ms total)
T0AFC 000:811 JLINK_WriteReg(R11, 0x00000000)  returns 0x00 (0000ms, 0265ms total)
T0AFC 000:811 JLINK_WriteReg(R12, 0x00000000)  returns 0x00 (0000ms, 0265ms total)
T0AFC 000:811 JLINK_WriteReg(R13 (SP), 0x20001000)  returns 0x00 (0000ms, 0265ms total)
T0AFC 000:811 JLINK_WriteReg(R14, 0x20000001)  returns 0x00 (0000ms, 0265ms total)
T0AFC 000:811 JLINK_WriteReg(R15 (PC), 0x20000108)  returns 0x00 (0000ms, 0265ms total)
T0AFC 000:811 JLINK_WriteReg(XPSR, 0x01000000)  returns 0x00 (0000ms, 0265ms total)
T0AFC 000:811 JLINK_WriteReg(MSP, 0x20001000)  returns 0x00 (0000ms, 0265ms total)
T0AFC 000:811 JLINK_WriteReg(PSP, 0x20001000)  returns 0x00 (0000ms, 0265ms total)
T0AFC 000:811 JLINK_WriteReg(CFBP, 0x00000000)  returns 0x00 (0000ms, 0265ms total)
T0AFC 000:811 JLINK_SetBPEx(Addr = 0x20000000, Type = 0xFFFFFFF2)  returns 0x00000007 (0000ms, 0265ms total)
T0AFC 000:811 JLINK_Go() -- CPU_ReadMem(4 bytes @ 0xE0001000) (0003ms, 0268ms total)
T0AFC 000:814 JLINK_IsHalted()  returns FALSE (0001ms, 0269ms total)
T0AFC 000:817 JLINK_IsHalted()  returns FALSE (0000ms, 0268ms total)
T0AFC 000:819 JLINK_IsHalted() -- CPU_ReadMem(2 bytes @ 0x20000000)  returns TRUE (0005ms, 0273ms total)
T0AFC 000:824 JLINK_ReadReg(R15 (PC))  returns 0x20000000 (0000ms, 0268ms total)
T0AFC 000:824 JLINK_ClrBPEx(BPHandle = 0x00000007)  returns 0x00 (0000ms, 0268ms total)
T0AFC 000:824 JLINK_ReadReg(R0)  returns 0x00000000 (0000ms, 0268ms total)
T0AFC 000:826 JLINK_WriteMem(0x20000180, 0x0400 Bytes, ...) - Data: 46 49 18 31 88 42 05 D1 4F F4 74 61 43 4A 10 3A ... -- CPU_WriteMem(1024 bytes @ 0x20000180)  returns 0x400 (0013ms, 0281ms total)
T0AFC 000:839 JLINK_WriteReg(R0, 0x08000800)  returns 0x00 (0000ms, 0281ms total)
T0AFC 000:839 JLINK_WriteReg(R1, 0x00000400)  returns 0x00 (0000ms, 0281ms total)
T0AFC 000:839 JLINK_WriteReg(R2, 0x20000180)  returns 0x00 (0000ms, 0281ms total)
T0AFC 000:839 JLINK_WriteReg(R3, 0x00000000)  returns 0x00 (0000ms, 0281ms total)
T0AFC 000:839 JLINK_WriteReg(R4, 0x00000000)  returns 0x00 (0000ms, 0281ms total)
T0AFC 000:839 JLINK_WriteReg(R5, 0x00000000)  returns 0x00 (0000ms, 0281ms total)
T0AFC 000:839 JLINK_WriteReg(R6, 0x00000000)  returns 0x00 (0000ms, 0281ms total)
T0AFC 000:839 JLINK_WriteReg(R7, 0x00000000)  returns 0x00 (0000ms, 0281ms total)
T0AFC 000:839 JLINK_WriteReg(R8, 0x00000000)  returns 0x00 (0000ms, 0281ms total)
T0AFC 000:839 JLINK_WriteReg(R9, 0x2000017C)  returns 0x00 (0001ms, 0282ms total)
T0AFC 000:840 JLINK_WriteReg(R10, 0x00000000)  returns 0x00 (0000ms, 0282ms total)
T0AFC 000:840 JLINK_WriteReg(R11, 0x00000000)  returns 0x00 (0000ms, 0282ms total)
T0AFC 000:840 JLINK_WriteReg(R12, 0x00000000)  returns 0x00 (0000ms, 0282ms total)
T0AFC 000:840 JLINK_WriteReg(R13 (SP), 0x20001000)  returns 0x00 (0000ms, 0282ms total)
T0AFC 000:840 JLINK_WriteReg(R14, 0x20000001)  returns 0x00 (0000ms, 0282ms total)
T0AFC 000:840 JLINK_WriteReg(R15 (PC), 0x20000108)  returns 0x00 (0000ms, 0282ms total)
T0AFC 000:840 JLINK_WriteReg(XPSR, 0x01000000)  returns 0x00 (0000ms, 0282ms total)
T0AFC 000:840 JLINK_WriteReg(MSP, 0x20001000)  returns 0x00 (0000ms, 0282ms total)
T0AFC 000:840 JLINK_WriteReg(PSP, 0x20001000)  returns 0x00 (0000ms, 0282ms total)
T0AFC 000:840 JLINK_WriteReg(CFBP, 0x00000000)  returns 0x00 (0000ms, 0282ms total)
T0AFC 000:840 JLINK_SetBPEx(Addr = 0x20000000, Type = 0xFFFFFFF2)  returns 0x00000008 (0000ms, 0282ms total)
T0AFC 000:840 JLINK_Go() -- CPU_ReadMem(4 bytes @ 0xE0001000) (0003ms, 0285ms total)
T0AFC 000:843 JLINK_IsHalted()  returns FALSE (0001ms, 0286ms total)
T0AFC 000:864 JLINK_IsHalted() -- CPU_ReadMem(2 bytes @ 0x20000000)  returns TRUE (0005ms, 0290ms total)
T0AFC 000:869 JLINK_ReadReg(R15 (PC))  returns 0x20000000 (0000ms, 0285ms total)
T0AFC 000:869 JLINK_ClrBPEx(BPHandle = 0x00000008)  returns 0x00 (0000ms, 0285ms total)
T0AFC 000:869 JLINK_ReadReg(R0)  returns 0x00000000 (0000ms, 0285ms total)
T0AFC 000:871 JLINK_WriteMem(0x20000180, 0x0400 Bytes, ...) - Data: 03 EB 82 02 02 F1 70 00 04 EB 04 12 02 EB 44 12 ... -- CPU_WriteMem(1024 bytes @ 0x20000180)  returns 0x400 (0013ms, 0298ms total)
T0AFC 000:884 JLINK_WriteReg(R0, 0x08000C00)  returns 0x00 (0000ms, 0298ms total)
T0AFC 000:884 JLINK_WriteReg(R1, 0x00000400)  returns 0x00 (0000ms, 0298ms total)
T0AFC 000:884 JLINK_WriteReg(R2, 0x20000180)  returns 0x00 (0000ms, 0298ms total)
T0AFC 000:884 JLINK_WriteReg(R3, 0x00000000)  returns 0x00 (0000ms, 0298ms total)
T0AFC 000:884 JLINK_WriteReg(R4, 0x00000000)  returns 0x00 (0000ms, 0298ms total)
T0AFC 000:884 JLINK_WriteReg(R5, 0x00000000)  returns 0x00 (0000ms, 0298ms total)
T0AFC 000:884 JLINK_WriteReg(R6, 0x00000000)  returns 0x00 (0000ms, 0298ms total)
T0AFC 000:884 JLINK_WriteReg(R7, 0x00000000)  returns 0x00 (0000ms, 0298ms total)
T0AFC 000:885 JLINK_WriteReg(R8, 0x00000000)  returns 0x00 (0000ms, 0298ms total)
T0AFC 000:885 JLINK_WriteReg(R9, 0x2000017C)  returns 0x00 (0000ms, 0298ms total)
T0AFC 000:885 JLINK_WriteReg(R10, 0x00000000)  returns 0x00 (0000ms, 0298ms total)
T0AFC 000:885 JLINK_WriteReg(R11, 0x00000000)  returns 0x00 (0000ms, 0298ms total)
T0AFC 000:885 JLINK_WriteReg(R12, 0x00000000)  returns 0x00 (0000ms, 0298ms total)
T0AFC 000:885 JLINK_WriteReg(R13 (SP), 0x20001000)  returns 0x00 (0000ms, 0298ms total)
T0AFC 000:885 JLINK_WriteReg(R14, 0x20000001)  returns 0x00 (0000ms, 0298ms total)
T0AFC 000:885 JLINK_WriteReg(R15 (PC), 0x20000108)  returns 0x00 (0000ms, 0298ms total)
T0AFC 000:885 JLINK_WriteReg(XPSR, 0x01000000)  returns 0x00 (0000ms, 0298ms total)
T0AFC 000:885 JLINK_WriteReg(MSP, 0x20001000)  returns 0x00 (0000ms, 0298ms total)
T0AFC 000:885 JLINK_WriteReg(PSP, 0x20001000)  returns 0x00 (0000ms, 0298ms total)
T0AFC 000:885 JLINK_WriteReg(CFBP, 0x00000000)  returns 0x00 (0000ms, 0298ms total)
T0AFC 000:885 JLINK_SetBPEx(Addr = 0x20000000, Type = 0xFFFFFFF2)  returns 0x00000009 (0000ms, 0298ms total)
T0AFC 000:885 JLINK_Go() -- CPU_ReadMem(4 bytes @ 0xE0001000) (0003ms, 0301ms total)
T0AFC 000:888 JLINK_IsHalted()  returns FALSE (0001ms, 0302ms total)
T0AFC 000:901 JLINK_IsHalted() -- CPU_ReadMem(2 bytes @ 0x20000000)  returns TRUE (0005ms, 0306ms total)
T0AFC 000:906 JLINK_ReadReg(R15 (PC))  returns 0x20000000 (0000ms, 0301ms total)
T0AFC 000:906 JLINK_ClrBPEx(BPHandle = 0x00000009)  returns 0x00 (0000ms, 0301ms total)
T0AFC 000:906 JLINK_ReadReg(R0)  returns 0x00000000 (0000ms, 0301ms total)
T0AFC 000:909 JLINK_WriteMem(0x20000180, 0x0400 Bytes, ...) - Data: 90 ED 0A 0A 80 ED 0C 0A 11 E0 90 ED 09 0A D0 ED ... -- CPU_WriteMem(1024 bytes @ 0x20000180)  returns 0x400 (0013ms, 0314ms total)
T0AFC 000:922 JLINK_WriteReg(R0, 0x08001000)  returns 0x00 (0000ms, 0314ms total)
T0AFC 000:922 JLINK_WriteReg(R1, 0x00000400)  returns 0x00 (0000ms, 0314ms total)
T0AFC 000:922 JLINK_WriteReg(R2, 0x20000180)  returns 0x00 (0000ms, 0314ms total)
T0AFC 000:922 JLINK_WriteReg(R3, 0x00000000)  returns 0x00 (0000ms, 0314ms total)
T0AFC 000:922 JLINK_WriteReg(R4, 0x00000000)  returns 0x00 (0000ms, 0314ms total)
T0AFC 000:922 JLINK_WriteReg(R5, 0x00000000)  returns 0x00 (0000ms, 0314ms total)
T0AFC 000:922 JLINK_WriteReg(R6, 0x00000000)  returns 0x00 (0000ms, 0314ms total)
T0AFC 000:922 JLINK_WriteReg(R7, 0x00000000)  returns 0x00 (0000ms, 0314ms total)
T0AFC 000:922 JLINK_WriteReg(R8, 0x00000000)  returns 0x00 (0000ms, 0314ms total)
T0AFC 000:922 JLINK_WriteReg(R9, 0x2000017C)  returns 0x00 (0000ms, 0314ms total)
T0AFC 000:922 JLINK_WriteReg(R10, 0x00000000)  returns 0x00 (0000ms, 0314ms total)
T0AFC 000:922 JLINK_WriteReg(R11, 0x00000000)  returns 0x00 (0000ms, 0314ms total)
T0AFC 000:922 JLINK_WriteReg(R12, 0x00000000)  returns 0x00 (0000ms, 0314ms total)
T0AFC 000:922 JLINK_WriteReg(R13 (SP), 0x20001000)  returns 0x00 (0001ms, 0315ms total)
T0AFC 000:923 JLINK_WriteReg(R14, 0x20000001)  returns 0x00 (0000ms, 0315ms total)
T0AFC 000:923 JLINK_WriteReg(R15 (PC), 0x20000108)  returns 0x00 (0000ms, 0315ms total)
T0AFC 000:923 JLINK_WriteReg(XPSR, 0x01000000)  returns 0x00 (0000ms, 0315ms total)
T0AFC 000:923 JLINK_WriteReg(MSP, 0x20001000)  returns 0x00 (0000ms, 0315ms total)
T0AFC 000:923 JLINK_WriteReg(PSP, 0x20001000)  returns 0x00 (0000ms, 0315ms total)
T0AFC 000:923 JLINK_WriteReg(CFBP, 0x00000000)  returns 0x00 (0000ms, 0315ms total)
T0AFC 000:923 JLINK_SetBPEx(Addr = 0x20000000, Type = 0xFFFFFFF2)  returns 0x0000000A (0000ms, 0315ms total)
T0AFC 000:923 JLINK_Go() -- CPU_ReadMem(4 bytes @ 0xE0001000) (0002ms, 0317ms total)
T0AFC 000:925 JLINK_IsHalted()  returns FALSE (0001ms, 0318ms total)
T0AFC 000:927 JLINK_IsHalted()  returns FALSE (0001ms, 0318ms total)
T0AFC 000:929 JLINK_IsHalted()  returns FALSE (0001ms, 0318ms total)
T0AFC 000:931 JLINK_IsHalted() -- CPU_ReadMem(2 bytes @ 0x20000000)  returns TRUE (0004ms, 0321ms total)
T0AFC 000:935 JLINK_ReadReg(R15 (PC))  returns 0x20000000 (0000ms, 0317ms total)
T0AFC 000:935 JLINK_ClrBPEx(BPHandle = 0x0000000A)  returns 0x00 (0000ms, 0317ms total)
T0AFC 000:935 JLINK_ReadReg(R0)  returns 0x00000000 (0000ms, 0317ms total)
T0AFC 000:937 JLINK_WriteMem(0x20000180, 0x0400 Bytes, ...) - Data: 00 00 00 00 80 84 2E 41 00 04 00 40 70 B5 2D ED ... -- CPU_WriteMem(1024 bytes @ 0x20000180)  returns 0x400 (0013ms, 0330ms total)
T0AFC 000:950 JLINK_WriteReg(R0, 0x08001400)  returns 0x00 (0000ms, 0330ms total)
T0AFC 000:950 JLINK_WriteReg(R1, 0x00000400)  returns 0x00 (0001ms, 0331ms total)
T0AFC 000:951 JLINK_WriteReg(R2, 0x20000180)  returns 0x00 (0000ms, 0331ms total)
T0AFC 000:951 JLINK_WriteReg(R3, 0x00000000)  returns 0x00 (0000ms, 0331ms total)
T0AFC 000:951 JLINK_WriteReg(R4, 0x00000000)  returns 0x00 (0000ms, 0331ms total)
T0AFC 000:951 JLINK_WriteReg(R5, 0x00000000)  returns 0x00 (0000ms, 0331ms total)
T0AFC 000:951 JLINK_WriteReg(R6, 0x00000000)  returns 0x00 (0000ms, 0331ms total)
T0AFC 000:951 JLINK_WriteReg(R7, 0x00000000)  returns 0x00 (0000ms, 0331ms total)
T0AFC 000:951 JLINK_WriteReg(R8, 0x00000000)  returns 0x00 (0000ms, 0331ms total)
T0AFC 000:951 JLINK_WriteReg(R9, 0x2000017C)  returns 0x00 (0000ms, 0331ms total)
T0AFC 000:951 JLINK_WriteReg(R10, 0x00000000)  returns 0x00 (0000ms, 0331ms total)
T0AFC 000:951 JLINK_WriteReg(R11, 0x00000000)  returns 0x00 (0000ms, 0331ms total)
T0AFC 000:951 JLINK_WriteReg(R12, 0x00000000)  returns 0x00 (0000ms, 0331ms total)
T0AFC 000:951 JLINK_WriteReg(R13 (SP), 0x20001000)  returns 0x00 (0000ms, 0331ms total)
T0AFC 000:951 JLINK_WriteReg(R14, 0x20000001)  returns 0x00 (0000ms, 0331ms total)
T0AFC 000:951 JLINK_WriteReg(R15 (PC), 0x20000108)  returns 0x00 (0000ms, 0331ms total)
T0AFC 000:951 JLINK_WriteReg(XPSR, 0x01000000)  returns 0x00 (0001ms, 0332ms total)
T0AFC 000:952 JLINK_WriteReg(MSP, 0x20001000)  returns 0x00 (0000ms, 0332ms total)
T0AFC 000:952 JLINK_WriteReg(PSP, 0x20001000)  returns 0x00 (0000ms, 0332ms total)
T0AFC 000:952 JLINK_WriteReg(CFBP, 0x00000000)  returns 0x00 (0000ms, 0332ms total)
T0AFC 000:952 JLINK_SetBPEx(Addr = 0x20000000, Type = 0xFFFFFFF2)  returns 0x0000000B (0000ms, 0332ms total)
T0AFC 000:952 JLINK_Go() -- CPU_ReadMem(4 bytes @ 0xE0001000) (0002ms, 0334ms total)
T0AFC 000:955 JLINK_IsHalted()  returns FALSE (0000ms, 0335ms total)
T0AFC 000:968 JLINK_IsHalted() -- CPU_ReadMem(2 bytes @ 0x20000000)  returns TRUE (0004ms, 0339ms total)
T0AFC 000:972 JLINK_ReadReg(R15 (PC))  returns 0x20000000 (0000ms, 0335ms total)
T0AFC 000:972 JLINK_ClrBPEx(BPHandle = 0x0000000B)  returns 0x00 (0000ms, 0335ms total)
T0AFC 000:972 JLINK_ReadReg(R0)  returns 0x00000000 (0000ms, 0335ms total)
T0AFC 000:973 JLINK_WriteMem(0x20000180, 0x0400 Bytes, ...) - Data: 8D F8 28 00 03 20 8D F8 29 00 00 20 8D F8 2A 00 ... -- CPU_WriteMem(1024 bytes @ 0x20000180)  returns 0x400 (0013ms, 0348ms total)
T0AFC 000:986 JLINK_WriteReg(R0, 0x08001800)  returns 0x00 (0000ms, 0348ms total)
T0AFC 000:986 JLINK_WriteReg(R1, 0x00000400)  returns 0x00 (0000ms, 0348ms total)
T0AFC 000:986 JLINK_WriteReg(R2, 0x20000180)  returns 0x00 (0000ms, 0348ms total)
T0AFC 000:986 JLINK_WriteReg(R3, 0x00000000)  returns 0x00 (0000ms, 0348ms total)
T0AFC 000:986 JLINK_WriteReg(R4, 0x00000000)  returns 0x00 (0000ms, 0348ms total)
T0AFC 000:986 JLINK_WriteReg(R5, 0x00000000)  returns 0x00 (0000ms, 0348ms total)
T0AFC 000:986 JLINK_WriteReg(R6, 0x00000000)  returns 0x00 (0000ms, 0348ms total)
T0AFC 000:986 JLINK_WriteReg(R7, 0x00000000)  returns 0x00 (0000ms, 0348ms total)
T0AFC 000:986 JLINK_WriteReg(R8, 0x00000000)  returns 0x00 (0000ms, 0348ms total)
T0AFC 000:986 JLINK_WriteReg(R9, 0x2000017C)  returns 0x00 (0000ms, 0348ms total)
T0AFC 000:986 JLINK_WriteReg(R10, 0x00000000)  returns 0x00 (0000ms, 0348ms total)
T0AFC 000:986 JLINK_WriteReg(R11, 0x00000000)  returns 0x00 (0000ms, 0348ms total)
T0AFC 000:986 JLINK_WriteReg(R12, 0x00000000)  returns 0x00 (0000ms, 0348ms total)
T0AFC 000:986 JLINK_WriteReg(R13 (SP), 0x20001000)  returns 0x00 (0000ms, 0348ms total)
T0AFC 000:986 JLINK_WriteReg(R14, 0x20000001)  returns 0x00 (0000ms, 0348ms total)
T0AFC 000:986 JLINK_WriteReg(R15 (PC), 0x20000108)  returns 0x00 (0000ms, 0348ms total)
T0AFC 000:986 JLINK_WriteReg(XPSR, 0x01000000)  returns 0x00 (0000ms, 0348ms total)
T0AFC 000:986 JLINK_WriteReg(MSP, 0x20001000)  returns 0x00 (0000ms, 0348ms total)
T0AFC 000:986 JLINK_WriteReg(PSP, 0x20001000)  returns 0x00 (0000ms, 0348ms total)
T0AFC 000:986 JLINK_WriteReg(CFBP, 0x00000000)  returns 0x00 (0001ms, 0349ms total)
T0AFC 000:987 JLINK_SetBPEx(Addr = 0x20000000, Type = 0xFFFFFFF2)  returns 0x0000000C (0000ms, 0349ms total)
T0AFC 000:987 JLINK_Go() -- CPU_ReadMem(4 bytes @ 0xE0001000) (0002ms, 0351ms total)
T0AFC 000:989 JLINK_IsHalted()  returns FALSE (0000ms, 0351ms total)
T0AFC 000:991 JLINK_IsHalted()  returns FALSE (0000ms, 0351ms total)
T0AFC 000:993 JLINK_IsHalted()  returns FALSE (0000ms, 0351ms total)
T0AFC 000:995 JLINK_IsHalted() -- CPU_ReadMem(2 bytes @ 0x20000000)  returns TRUE (0003ms, 0354ms total)
T0AFC 000:998 JLINK_ReadReg(R15 (PC))  returns 0x20000000 (0000ms, 0351ms total)
T0AFC 000:998 JLINK_ClrBPEx(BPHandle = 0x0000000C)  returns 0x00 (0000ms, 0351ms total)
T0AFC 000:998 JLINK_ReadReg(R0)  returns 0x00000000 (0001ms, 0352ms total)
T0AFC 001:000 JLINK_WriteMem(0x20000180, 0x0400 Bytes, ...) - Data: 0A 46 00 21 81 8B 4F F6 F7 73 19 40 11 43 81 83 ... -- CPU_WriteMem(1024 bytes @ 0x20000180)  returns 0x400 (0013ms, 0365ms total)
T0AFC 001:013 JLINK_WriteReg(R0, 0x08001C00)  returns 0x00 (0000ms, 0365ms total)
T0AFC 001:013 JLINK_WriteReg(R1, 0x00000400)  returns 0x00 (0000ms, 0365ms total)
T0AFC 001:013 JLINK_WriteReg(R2, 0x20000180)  returns 0x00 (0000ms, 0365ms total)
T0AFC 001:013 JLINK_WriteReg(R3, 0x00000000)  returns 0x00 (0000ms, 0365ms total)
T0AFC 001:013 JLINK_WriteReg(R4, 0x00000000)  returns 0x00 (0000ms, 0365ms total)
T0AFC 001:013 JLINK_WriteReg(R5, 0x00000000)  returns 0x00 (0000ms, 0365ms total)
T0AFC 001:013 JLINK_WriteReg(R6, 0x00000000)  returns 0x00 (0000ms, 0365ms total)
T0AFC 001:013 JLINK_WriteReg(R7, 0x00000000)  returns 0x00 (0000ms, 0365ms total)
T0AFC 001:013 JLINK_WriteReg(R8, 0x00000000)  returns 0x00 (0000ms, 0365ms total)
T0AFC 001:013 JLINK_WriteReg(R9, 0x2000017C)  returns 0x00 (0000ms, 0365ms total)
T0AFC 001:013 JLINK_WriteReg(R10, 0x00000000)  returns 0x00 (0000ms, 0365ms total)
T0AFC 001:013 JLINK_WriteReg(R11, 0x00000000)  returns 0x00 (0000ms, 0365ms total)
T0AFC 001:013 JLINK_WriteReg(R12, 0x00000000)  returns 0x00 (0000ms, 0365ms total)
T0AFC 001:013 JLINK_WriteReg(R13 (SP), 0x20001000)  returns 0x00 (0000ms, 0365ms total)
T0AFC 001:013 JLINK_WriteReg(R14, 0x20000001)  returns 0x00 (0000ms, 0365ms total)
T0AFC 001:013 JLINK_WriteReg(R15 (PC), 0x20000108)  returns 0x00 (0000ms, 0365ms total)
T0AFC 001:013 JLINK_WriteReg(XPSR, 0x01000000)  returns 0x00 (0000ms, 0365ms total)
T0AFC 001:013 JLINK_WriteReg(MSP, 0x20001000)  returns 0x00 (0000ms, 0365ms total)
T0AFC 001:013 JLINK_WriteReg(PSP, 0x20001000)  returns 0x00 (0000ms, 0365ms total)
T0AFC 001:013 JLINK_WriteReg(CFBP, 0x00000000)  returns 0x00 (0000ms, 0365ms total)
T0AFC 001:013 JLINK_SetBPEx(Addr = 0x20000000, Type = 0xFFFFFFF2)  returns 0x0000000D (0000ms, 0365ms total)
T0AFC 001:013 JLINK_Go() -- CPU_ReadMem(4 bytes @ 0xE0001000) (0003ms, 0368ms total)
T0AFC 001:016 JLINK_IsHalted()  returns FALSE (0000ms, 0368ms total)
T0AFC 001:018 JLINK_IsHalted()  returns FALSE (0000ms, 0368ms total)
T0AFC 001:020 JLINK_IsHalted()  returns FALSE (0000ms, 0368ms total)
T0AFC 001:022 JLINK_IsHalted() -- CPU_ReadMem(2 bytes @ 0x20000000)  returns TRUE (0004ms, 0372ms total)
T0AFC 001:026 JLINK_ReadReg(R15 (PC))  returns 0x20000000 (0000ms, 0368ms total)
T0AFC 001:026 JLINK_ClrBPEx(BPHandle = 0x0000000D)  returns 0x00 (0000ms, 0368ms total)
T0AFC 001:026 JLINK_ReadReg(R0)  returns 0x00000000 (0000ms, 0368ms total)
T0AFC 001:027 JLINK_WriteMem(0x20000180, 0x0400 Bytes, ...) - Data: 29 48 FF F7 FA FE 0D 20 8D F8 38 00 02 20 8D F8 ... -- CPU_WriteMem(1024 bytes @ 0x20000180)  returns 0x400 (0012ms, 0380ms total)
T0AFC 001:039 JLINK_WriteReg(R0, 0x08002000)  returns 0x00 (0000ms, 0380ms total)
T0AFC 001:040 JLINK_WriteReg(R1, 0x00000400)  returns 0x00 (0000ms, 0381ms total)
T0AFC 001:040 JLINK_WriteReg(R2, 0x20000180)  returns 0x00 (0000ms, 0381ms total)
T0AFC 001:040 JLINK_WriteReg(R3, 0x00000000)  returns 0x00 (0000ms, 0381ms total)
T0AFC 001:040 JLINK_WriteReg(R4, 0x00000000)  returns 0x00 (0000ms, 0381ms total)
T0AFC 001:040 JLINK_WriteReg(R5, 0x00000000)  returns 0x00 (0000ms, 0381ms total)
T0AFC 001:040 JLINK_WriteReg(R6, 0x00000000)  returns 0x00 (0000ms, 0381ms total)
T0AFC 001:040 JLINK_WriteReg(R7, 0x00000000)  returns 0x00 (0000ms, 0381ms total)
T0AFC 001:040 JLINK_WriteReg(R8, 0x00000000)  returns 0x00 (0000ms, 0381ms total)
T0AFC 001:040 JLINK_WriteReg(R9, 0x2000017C)  returns 0x00 (0000ms, 0381ms total)
T0AFC 001:040 JLINK_WriteReg(R10, 0x00000000)  returns 0x00 (0000ms, 0381ms total)
T0AFC 001:040 JLINK_WriteReg(R11, 0x00000000)  returns 0x00 (0000ms, 0381ms total)
T0AFC 001:040 JLINK_WriteReg(R12, 0x00000000)  returns 0x00 (0000ms, 0381ms total)
T0AFC 001:040 JLINK_WriteReg(R13 (SP), 0x20001000)  returns 0x00 (0000ms, 0381ms total)
T0AFC 001:040 JLINK_WriteReg(R14, 0x20000001)  returns 0x00 (0000ms, 0381ms total)
T0AFC 001:040 JLINK_WriteReg(R15 (PC), 0x20000108)  returns 0x00 (0000ms, 0381ms total)
T0AFC 001:040 JLINK_WriteReg(XPSR, 0x01000000)  returns 0x00 (0000ms, 0381ms total)
T0AFC 001:040 JLINK_WriteReg(MSP, 0x20001000)  returns 0x00 (0000ms, 0381ms total)
T0AFC 001:040 JLINK_WriteReg(PSP, 0x20001000)  returns 0x00 (0000ms, 0381ms total)
T0AFC 001:040 JLINK_WriteReg(CFBP, 0x00000000)  returns 0x00 (0000ms, 0381ms total)
T0AFC 001:040 JLINK_SetBPEx(Addr = 0x20000000, Type = 0xFFFFFFF2)  returns 0x0000000E (0000ms, 0381ms total)
T0AFC 001:040 JLINK_Go() -- CPU_ReadMem(4 bytes @ 0xE0001000) (0003ms, 0384ms total)
T0AFC 001:043 JLINK_IsHalted()  returns FALSE (0000ms, 0384ms total)
T0AFC 001:048 JLINK_IsHalted() -- CPU_ReadMem(2 bytes @ 0x20000000)  returns TRUE (0003ms, 0387ms total)
T0AFC 001:051 JLINK_ReadReg(R15 (PC))  returns 0x20000000 (0000ms, 0384ms total)
T0AFC 001:051 JLINK_ClrBPEx(BPHandle = 0x0000000E)  returns 0x00 (0000ms, 0384ms total)
T0AFC 001:051 JLINK_ReadReg(R0)  returns 0x00000000 (0001ms, 0385ms total)
T0AFC 001:053 JLINK_WriteMem(0x20000180, 0x0400 Bytes, ...) - Data: 4F F4 80 60 06 90 00 20 07 90 08 90 4F F4 80 70 ... -- CPU_WriteMem(1024 bytes @ 0x20000180)  returns 0x400 (0012ms, 0397ms total)
T0AFC 001:066 JLINK_WriteReg(R0, 0x08002400)  returns 0x00 (0000ms, 0397ms total)
T0AFC 001:066 JLINK_WriteReg(R1, 0x00000400)  returns 0x00 (0000ms, 0397ms total)
T0AFC 001:066 JLINK_WriteReg(R2, 0x20000180)  returns 0x00 (0000ms, 0397ms total)
T0AFC 001:066 JLINK_WriteReg(R3, 0x00000000)  returns 0x00 (0000ms, 0397ms total)
